
T20C0 000:257 SEGGER J-Link V4.54a Log File (0001ms, 0258ms total)
T20C0 000:257 DLL Compiled: Sep 17 2012 15:58:45 (0001ms, 0258ms total)
T20C0 000:257 Logging started @ 2015-08-17 12:10 (0001ms, 0258ms total)
T20C0 000:258 JLINK_SetWarnOutHandler(...) (0000ms, 0258ms total)
T20C0 000:258 JLINK_OpenEx(...)
Firmware: J-Link ARM V8 compiled Aug  1 2012 13:40:47
Hardware: V8.00
S/N: 270676280
Feature(s): RDI,FlashDL,FlashBP,JFlash,GDBFULL  returns O.K. (0014ms, 0272ms total)
T20C0 000:272 JLINK_SetErrorOutHandler(...) (0000ms, 0272ms total)
T20C0 000:272 JLINK_ExecCommand("ProjectFile = "D:\GitHub respository\OneKeySolution-FW\GPIO_LED_IAP_TEST\RVMDK\JLinkSettings.ini"", ...)  returns 0x00 (0000ms, 0272ms total)
T20C0 000:277 JLINK_ExecCommand("Device = STM32F103C8", ...)
                JLINK_ExecCommand("map ram 0x20000000 - 0x20004FFF", ...)  returns 0x00 (0000ms, 0000ms total)
                JLINK_AddMirrorAreaEx(Addr = 0x00000000, Size = 0x00000000) (0000ms, 0000ms total)
              Device "STM32F103C8" selected (64 KB flash, 20 KB RAM).  returns 0x00 (0006ms, 0278ms total)
T20C0 000:283 JLINK_ExecCommand("DisableConnectionTimeout", ...)  returns 0x00 (0000ms, 0278ms total)
T20C0 000:283 JLINK_TIF_Select(JLINKARM_TIF_SWD)  returns 0x00 (0002ms, 0280ms total)
T20C0 000:285 JLINK_SetSpeed(2000) (0000ms, 0280ms total)
T20C0 000:285 JLINK_GetHardwareVersion()  returns 0x13880 (0000ms, 0280ms total)
T20C0 000:285 JLINK_GetDLLVersion()  returns 45401 (0000ms, 0280ms total)
T20C0 000:285 JLINK_GetFirmwareString(...) (0000ms, 0280ms total)
T20C0 000:292 JLINK_GetDLLVersion()  returns 45401 (0000ms, 0280ms total)
T20C0 000:292 JLINK_GetCompileDateTime() (0000ms, 0280ms total)
T20C0 000:294 JLINK_GetFirmwareString(...) (0000ms, 0280ms total)
T20C0 000:296 JLINK_GetHardwareVersion()  returns 0x13880 (0000ms, 0280ms total)
T20C0 000:305 JLINK_GetId() >0x108 TIF>Found SWD-DP with ID 0x1BA01477 >0x0D TIF> >0x28 TIF> >0x0D TIF> >0x28 TIF> >0x0D TIF> >0x21 TIF> >0x0D TIF> >0x28 TIF> >0x0D TIF> >0x28 TIF> >0x0D TIF> >0x28 TIF> >0x0D TIF> >0x21 TIF> >0x0D TIF> >0x21 TIF> >0x0D TIF> >0x28 TIF> >0x0D TIF> >0x21 TIF> >0x0D TIF> >0x21 TIF> >0x108 TIF>Found SWD-DP with ID 0x1BA01477 >0x0D TIF> >0x21 TIF> >0x0D TIF> >0x28 TIF> >0x0D TIF> >0x28 TIF> >0x0D TIF> >0x21 TIF> >0x0D TIF> >0x21 TIF> >0x0D TIF> >0x28 TIF> >0x0D TIF> >0x21 TIF>
 >0x0D TIF> >0x21 TIF> >0x0D TIF> >0x21 TIF> >0x0D TIF> >0x21 TIF> >0x0D TIF> >0x21 TIF> >0x0D TIF> >0x28 TIF> >0x0D TIF> >0x28 TIF> >0x0D TIF> >0x21 TIF> >0x0D TIF> >0x21 TIF> >0x0D TIF> >0x28 TIF> >0x0D TIF> >0x21 TIF> >0x0D TIF> >0x21 TIF> >0x0D TIF> >0x28 TIF> >0x0D TIF> >0x28 TIF> >0x0D TIF> >0x28 TIF> >0x0D TIF> >0x21 TIF> >0x0D TIF> >0x21 TIF> >0x0D TIF> >0x28 TIF> >0x0D TIF> >0x28 TIF> >0x0D TIF> >0x28 TIF> >0x0D TIF> >0x21 TIF> >0x0D TIF> >0x21 TIF> >0x0D TIF> >0x21 TIF>TPIU fitted.ETM fitted.
 >0x0D TIF> >0x28 TIF> >0x0D TIF> >0x21 TIF> >0x0D TIF> >0x21 TIF> >0x0D TIF> >0x28 TIF> >0x0D TIF> >0x21 TIF> >0x0D TIF> >0x21 TIF>FPUnit: 6 code (BP) slots and 2 literal slots >0x0D TIF> >0x28 TIF> >0x0D TIF> >0x21 TIF> >0x0D TIF> >0x21 TIF> >0x0D TIF> >0x28 TIF> >0x0D TIF> >0x21 TIF> >0x0D TIF> >0x21 TIF> >0x0D TIF> >0x28 TIF> >0x0D TIF> >0x21 TIF> >0x0D TIF> >0x21 TIF> >0x0D TIF> >0x28 TIF> >0x0D TIF> >0x21 TIF> >0x0D TIF> >0x21 TIF>Found Cortex-M3 r1p1, Little endian. >0x0D TIF> >0x21 TIF>
  returns 0x1BA01477 (0059ms, 0339ms total)
T20C0 000:364 JLINK_GetDeviceFamily()  returns 3 (0000ms, 0339ms total)
T20C0 000:367 JLINK_ReadMem (0xE00FFFF0, 0x0010 Bytes, ...) -- CPU is running -- CPU_ReadMem(16 bytes @ 0xE00FFFF0) -- Data:  0D 00 00 00 10 00 00 00 05 00 00 00 B1 00 00 00  returns 0x00 (0001ms, 0340ms total)
T20C0 000:368 JLINK_ReadMem (0xE00FFFD0, 0x0020 Bytes, ...) -- CPU is running -- CPU_ReadMem(32 bytes @ 0xE00FFFD0) -- Data:  00 00 00 00 00 00 00 00 00 00 00 00 00 00 00 00 ...  returns 0x00 (0001ms, 0341ms total)
T20C0 000:369 JLINK_ReadMem (0xE00FF000, 0x0018 Bytes, ...) -- CPU is running -- CPU_ReadMem(24 bytes @ 0xE00FF000) -- Data:  03 F0 F0 FF 03 20 F0 FF 03 30 F0 FF 03 10 F0 FF ...  returns 0x00 (0001ms, 0342ms total)
T20C0 000:370 JLINK_ReadMemU32(0xE000ED00, 0x0001 Items, ...) -- CPU is running -- CPU_ReadMem(4 bytes @ 0xE000ED00) -- Data:  31 C2 1F 41  returns 0x01 (0001ms, 0343ms total)
T20C0 000:371 JLINK_SetResetType(JLINKARM_RESET_TYPE_NORMAL)  returns JLINKARM_RESET_TYPE_NORMAL (0000ms, 0343ms total)
T20C0 000:371 JLINK_Reset() -- CPU is running -- CPU_WriteMem(4 bytes @ 0xE000EDF0) -- CPU is running -- CPU_WriteMem(4 bytes @ 0xE000EDFC) >0x35 TIF> -- CPU is running -- CPU_WriteMem(4 bytes @ 0xE000ED0C) -- CPU is running -- CPU_ReadMem(4 bytes @ 0xE000EDF0) -- CPU is running -- CPU_ReadMem(4 bytes @ 0xE000EDF0) -- CPU is running -- CPU_WriteMem(4 bytes @ 0xE000EDF0) -- CPU is running -- CPU_WriteMem(4 bytes @ 0xE000EDFC) -- CPU is running -- CPU_ReadMem(4 bytes @ 0xE000EDF0)
 -- CPU_WriteMem(4 bytes @ 0xE0002000) (0018ms, 0361ms total)
T20C0 000:389 JLINK_Halt()  returns 0x00 (0000ms, 0361ms total)
T20C0 000:389 JLINK_IsHalted()  returns TRUE (0000ms, 0361ms total)
T20C0 000:389 JLINK_ReadMemU32(0xE000EDF0, 0x0001 Items, ...) -- CPU_ReadMem(4 bytes @ 0xE000EDF0) -- Data:  03 00 03 00  returns 0x01 (0000ms, 0361ms total)
T20C0 000:389 JLINK_WriteU32(0xE000EDF0, 0xA05F0003) -- CPU_WriteMem(4 bytes @ 0xE000EDF0)  returns 0x00 (0001ms, 0362ms total)
T20C0 000:390 JLINK_WriteU32(0xE000EDFC, 0x01000000) -- CPU_WriteMem(4 bytes @ 0xE000EDFC)  returns 0x00 (0001ms, 0363ms total)
T20C0 000:399 JLINK_GetHWStatus(...)  returns 0x00 (0001ms, 0364ms total)
T20C0 000:405 JLINK_GetNumBPUnits(Type = 0xFFFFFF00)  returns 0x06 (0000ms, 0364ms total)
T20C0 000:405 JLINK_GetNumBPUnits(Type = 0xF0)  returns 0x2000 (0000ms, 0364ms total)
T20C0 000:405 JLINK_GetNumWPUnits()  returns 0x04 (0000ms, 0364ms total)
T20C0 000:409 JLINK_GetSpeed()  returns 0x7D0 (0000ms, 0364ms total)
T20C0 000:413 JLINK_ReadMemU32(0xE000E004, 0x0001 Items, ...) -- CPU_ReadMem(4 bytes @ 0xE000E004) -- Data:  01 00 00 00  returns 0x01 (0001ms, 0365ms total)
T20C0 000:414 JLINK_ReadMemU32(0xE000E004, 0x0001 Items, ...) -- CPU_ReadMem(4 bytes @ 0xE000E004) -- Data:  01 00 00 00  returns 0x01 (0001ms, 0366ms total)
T20C0 000:415 JLINK_WriteMem(0xE0001000, 0x001C Bytes, ...) -- Data:  01 00 00 00 00 00 00 00 00 00 00 00 00 00 00 00 ... -- CPU_WriteMem(28 bytes @ 0xE0001000)  returns 0x1C (0001ms, 0367ms total)
T20C0 000:416 JLINK_ReadMem (0xE0001000, 0x001C Bytes, ...) -- CPU_ReadMem(28 bytes @ 0xE0001000) -- Data:  01 00 00 40 00 00 00 00 00 00 00 00 00 00 00 00 ...  returns 0x00 (0001ms, 0368ms total)
T20C0 000:417 JLINK_Halt()  returns 0x00 (0000ms, 0368ms total)
T20C0 000:417 JLINK_IsHalted()  returns TRUE (0000ms, 0368ms total)
T20C0 000:419 JLINK_WriteMem(0x20000000, 0x0164 Bytes, ...) -- Data:  00 BE 0A E0 0D 78 2D 06 68 40 08 24 40 00 00 D3 ... -- CPU_WriteMem(356 bytes @ 0x20000000)  returns 0x164 (0005ms, 0373ms total)
T20C0 000:424 JLINK_WriteReg(R0, 0x08000000)  returns 0x00 (0000ms, 0373ms total)
T20C0 000:424 JLINK_WriteReg(R1, 0x007A1200)  returns 0x00 (0000ms, 0373ms total)
T20C0 000:424 JLINK_WriteReg(R2, 0x00000001)  returns 0x00 (0000ms, 0373ms total)
T20C0 000:424 JLINK_WriteReg(R3, 0x00000000)  returns 0x00 (0000ms, 0373ms total)
T20C0 000:424 JLINK_WriteReg(R4, 0x00000000)  returns 0x00 (0000ms, 0373ms total)
T20C0 000:424 JLINK_WriteReg(R5, 0x00000000)  returns 0x00 (0000ms, 0373ms total)
T20C0 000:424 JLINK_WriteReg(R6, 0x00000000)  returns 0x00 (0000ms, 0373ms total)
T20C0 000:424 JLINK_WriteReg(R7, 0x00000000)  returns 0x00 (0000ms, 0373ms total)
T20C0 000:424 JLINK_WriteReg(R8, 0x00000000)  returns 0x00 (0000ms, 0373ms total)
T20C0 000:424 JLINK_WriteReg(R9, 0x20000160)  returns 0x00 (0000ms, 0373ms total)
T20C0 000:424 JLINK_WriteReg(R10, 0x00000000)  returns 0x00 (0000ms, 0373ms total)
T20C0 000:424 JLINK_WriteReg(R11, 0x00000000)  returns 0x00 (0000ms, 0373ms total)
T20C0 000:424 JLINK_WriteReg(R12, 0x00000000)  returns 0x00 (0000ms, 0373ms total)
T20C0 000:424 JLINK_WriteReg(R13, 0x20000800)  returns 0x00 (0000ms, 0373ms total)
T20C0 000:424 JLINK_WriteReg(R14, 0x20000001)  returns 0x00 (0000ms, 0373ms total)
T20C0 000:424 JLINK_WriteReg(R15, 0x20000038)  returns 0x00 (0000ms, 0373ms total)
T20C0 000:424 JLINK_WriteReg(XPSR, 0x01000000)  returns 0x00 (0000ms, 0373ms total)
T20C0 000:424 JLINK_WriteReg(MSP, 0x20000800)  returns 0x00 (0000ms, 0373ms total)
T20C0 000:424 JLINK_WriteReg(PSP, 0x20000800)  returns 0x00 (0000ms, 0373ms total)
T20C0 000:424 JLINK_WriteReg(CFBP, 0x00000000)  returns 0x00 (0000ms, 0373ms total)
T20C0 000:424 JLINK_SetBPEx(Addr = 0x20000000, Type = 0xFFFFFFF2) -- CPU_ReadMem(2 bytes @ 0x20000000)  returns 0x00000001 (0001ms, 0374ms total)
T20C0 000:425 JLINK_Go() -- CPU_WriteMem(2 bytes @ 0x20000000) -- CPU_WriteMem(4 bytes @ 0xE0002008) -- CPU_WriteMem(4 bytes @ 0xE000200C) -- CPU_WriteMem(4 bytes @ 0xE0002010) -- CPU_WriteMem(4 bytes @ 0xE0002014) -- CPU_WriteMem(4 bytes @ 0xE0002018) -- CPU_WriteMem(4 bytes @ 0xE000201C) (0007ms, 0381ms total)
T20C0 000:432 JLINK_IsHalted() -- CPU_ReadMem(2 bytes @ 0x20000000)  returns TRUE (0005ms, 0386ms total)
T20C0 000:437 JLINK_ReadReg(R15)  returns 0x20000000 (0000ms, 0381ms total)
T20C0 000:437 JLINK_ClrBPEx(BPHandle = 0x00000001)  returns 0x00 (0000ms, 0381ms total)
T20C0 000:437 JLINK_ReadReg(R0)  returns 0x00000000 (0000ms, 0381ms total)
T20C0 000:437 JLINK_WriteReg(R0, 0x08000000)  returns 0x00 (0000ms, 0381ms total)
T20C0 000:437 JLINK_WriteReg(R1, 0x007A1200)  returns 0x00 (0000ms, 0381ms total)
T20C0 000:437 JLINK_WriteReg(R2, 0x00000001)  returns 0x00 (0000ms, 0381ms total)
T20C0 000:437 JLINK_WriteReg(R3, 0x00000000)  returns 0x00 (0000ms, 0381ms total)
T20C0 000:437 JLINK_WriteReg(R4, 0x00000000)  returns 0x00 (0000ms, 0381ms total)
T20C0 000:437 JLINK_WriteReg(R5, 0x00000000)  returns 0x00 (0000ms, 0381ms total)
T20C0 000:437 JLINK_WriteReg(R6, 0x00000000)  returns 0x00 (0000ms, 0381ms total)
T20C0 000:437 JLINK_WriteReg(R7, 0x00000000)  returns 0x00 (0000ms, 0381ms total)
T20C0 000:437 JLINK_WriteReg(R8, 0x00000000)  returns 0x00 (0000ms, 0381ms total)
T20C0 000:437 JLINK_WriteReg(R9, 0x20000160)  returns 0x00 (0000ms, 0381ms total)
T20C0 000:437 JLINK_WriteReg(R10, 0x00000000)  returns 0x00 (0000ms, 0381ms total)
T20C0 000:437 JLINK_WriteReg(R11, 0x00000000)  returns 0x00 (0000ms, 0381ms total)
T20C0 000:437 JLINK_WriteReg(R12, 0x00000000)  returns 0x00 (0000ms, 0381ms total)
T20C0 000:437 JLINK_WriteReg(R13, 0x20000800)  returns 0x00 (0000ms, 0381ms total)
T20C0 000:437 JLINK_WriteReg(R14, 0x20000001)  returns 0x00 (0000ms, 0381ms total)
T20C0 000:437 JLINK_WriteReg(R15, 0x2000007C)  returns 0x00 (0000ms, 0381ms total)
T20C0 000:437 JLINK_WriteReg(XPSR, 0x01000000)  returns 0x00 (0000ms, 0381ms total)
T20C0 000:437 JLINK_WriteReg(MSP, 0x20000800)  returns 0x00 (0000ms, 0381ms total)
T20C0 000:437 JLINK_WriteReg(PSP, 0x20000800)  returns 0x00 (0000ms, 0381ms total)
T20C0 000:437 JLINK_WriteReg(CFBP, 0x00000000)  returns 0x00 (0000ms, 0381ms total)
T20C0 000:437 JLINK_SetBPEx(Addr = 0x20000000, Type = 0xFFFFFFF2)  returns 0x00000002 (0000ms, 0381ms total)
T20C0 000:437 JLINK_Go() (0002ms, 0383ms total)
T20C0 000:439 JLINK_IsHalted()  returns FALSE (0001ms, 0384ms total)
T20C0 000:490 JLINK_IsHalted() -- CPU_ReadMem(2 bytes @ 0x20000000)  returns TRUE (0004ms, 0387ms total)
T20C0 000:494 JLINK_ReadReg(R15)  returns 0x20000000 (0000ms, 0383ms total)
T20C0 000:494 JLINK_ClrBPEx(BPHandle = 0x00000002)  returns 0x00 (0000ms, 0383ms total)
T20C0 000:494 JLINK_ReadReg(R0)  returns 0x00000000 (0000ms, 0383ms total)
T20C0 000:546 JLINK_WriteReg(R0, 0x00000001)  returns 0x00 (0000ms, 0383ms total)
T20C0 000:546 JLINK_WriteReg(R1, 0x007A1200)  returns 0x00 (0000ms, 0383ms total)
T20C0 000:546 JLINK_WriteReg(R2, 0x00000001)  returns 0x00 (0000ms, 0383ms total)
T20C0 000:546 JLINK_WriteReg(R3, 0x00000000)  returns 0x00 (0000ms, 0383ms total)
T20C0 000:546 JLINK_WriteReg(R4, 0x00000000)  returns 0x00 (0000ms, 0383ms total)
T20C0 000:546 JLINK_WriteReg(R5, 0x00000000)  returns 0x00 (0000ms, 0383ms total)
T20C0 000:546 JLINK_WriteReg(R6, 0x00000000)  returns 0x00 (0000ms, 0383ms total)
T20C0 000:546 JLINK_WriteReg(R7, 0x00000000)  returns 0x00 (0000ms, 0383ms total)
T20C0 000:546 JLINK_WriteReg(R8, 0x00000000)  returns 0x00 (0000ms, 0383ms total)
T20C0 000:546 JLINK_WriteReg(R9, 0x20000160)  returns 0x00 (0000ms, 0383ms total)
T20C0 000:546 JLINK_WriteReg(R10, 0x00000000)  returns 0x00 (0000ms, 0383ms total)
T20C0 000:546 JLINK_WriteReg(R11, 0x00000000)  returns 0x00 (0000ms, 0383ms total)
T20C0 000:546 JLINK_WriteReg(R12, 0x00000000)  returns 0x00 (0000ms, 0383ms total)
T20C0 000:546 JLINK_WriteReg(R13, 0x20000800)  returns 0x00 (0000ms, 0383ms total)
T20C0 000:546 JLINK_WriteReg(R14, 0x20000001)  returns 0x00 (0000ms, 0383ms total)
T20C0 000:546 JLINK_WriteReg(R15, 0x2000006A)  returns 0x00 (0000ms, 0383ms total)
T20C0 000:546 JLINK_WriteReg(XPSR, 0x01000000)  returns 0x00 (0000ms, 0383ms total)
T20C0 000:546 JLINK_WriteReg(MSP, 0x20000800)  returns 0x00 (0000ms, 0383ms total)
T20C0 000:546 JLINK_WriteReg(PSP, 0x20000800)  returns 0x00 (0000ms, 0383ms total)
T20C0 000:546 JLINK_WriteReg(CFBP, 0x00000000)  returns 0x00 (0000ms, 0383ms total)
T20C0 000:546 JLINK_SetBPEx(Addr = 0x20000000, Type = 0xFFFFFFF2)  returns 0x00000003 (0000ms, 0383ms total)
T20C0 000:546 JLINK_Go() (0002ms, 0385ms total)
T20C0 000:548 JLINK_IsHalted() -- CPU_ReadMem(2 bytes @ 0x20000000)  returns TRUE (0005ms, 0390ms total)
T20C0 000:553 JLINK_ReadReg(R15)  returns 0x20000000 (0000ms, 0385ms total)
T20C0 000:553 JLINK_ClrBPEx(BPHandle = 0x00000003)  returns 0x00 (0000ms, 0385ms total)
T20C0 000:553 JLINK_ReadReg(R0)  returns 0x00000000 (0000ms, 0385ms total)
T20C0 000:558 JLINK_WriteMem(0x20000000, 0x0164 Bytes, ...) -- Data:  00 BE 0A E0 0D 78 2D 06 68 40 08 24 40 00 00 D3 ... -- CPU_WriteMem(356 bytes @ 0x20000000)  returns 0x164 (0005ms, 0390ms total)
T20C0 000:563 JLINK_WriteReg(R0, 0x08000000)  returns 0x00 (0000ms, 0390ms total)
T20C0 000:563 JLINK_WriteReg(R1, 0x007A1200)  returns 0x00 (0000ms, 0390ms total)
T20C0 000:563 JLINK_WriteReg(R2, 0x00000002)  returns 0x00 (0000ms, 0390ms total)
T20C0 000:563 JLINK_WriteReg(R3, 0x00000000)  returns 0x00 (0000ms, 0390ms total)
T20C0 000:563 JLINK_WriteReg(R4, 0x00000000)  returns 0x00 (0000ms, 0390ms total)
T20C0 000:563 JLINK_WriteReg(R5, 0x00000000)  returns 0x00 (0000ms, 0390ms total)
T20C0 000:563 JLINK_WriteReg(R6, 0x00000000)  returns 0x00 (0000ms, 0390ms total)
T20C0 000:563 JLINK_WriteReg(R7, 0x00000000)  returns 0x00 (0000ms, 0390ms total)
T20C0 000:563 JLINK_WriteReg(R8, 0x00000000)  returns 0x00 (0000ms, 0390ms total)
T20C0 000:563 JLINK_WriteReg(R9, 0x20000160)  returns 0x00 (0000ms, 0390ms total)
T20C0 000:563 JLINK_WriteReg(R10, 0x00000000)  returns 0x00 (0000ms, 0390ms total)
T20C0 000:563 JLINK_WriteReg(R11, 0x00000000)  returns 0x00 (0000ms, 0390ms total)
T20C0 000:563 JLINK_WriteReg(R12, 0x00000000)  returns 0x00 (0000ms, 0390ms total)
T20C0 000:563 JLINK_WriteReg(R13, 0x20000800)  returns 0x00 (0000ms, 0390ms total)
T20C0 000:563 JLINK_WriteReg(R14, 0x20000001)  returns 0x00 (0000ms, 0390ms total)
T20C0 000:563 JLINK_WriteReg(R15, 0x20000038)  returns 0x00 (0000ms, 0390ms total)
T20C0 000:563 JLINK_WriteReg(XPSR, 0x01000000)  returns 0x00 (0000ms, 0390ms total)
T20C0 000:563 JLINK_WriteReg(MSP, 0x20000800)  returns 0x00 (0000ms, 0390ms total)
T20C0 000:563 JLINK_WriteReg(PSP, 0x20000800)  returns 0x00 (0000ms, 0390ms total)
T20C0 000:563 JLINK_WriteReg(CFBP, 0x00000000)  returns 0x00 (0000ms, 0390ms total)
T20C0 000:563 JLINK_SetBPEx(Addr = 0x20000000, Type = 0xFFFFFFF2) -- CPU_ReadMem(2 bytes @ 0x20000000)  returns 0x00000004 (0001ms, 0391ms total)
T20C0 000:564 JLINK_Go() -- CPU_WriteMem(2 bytes @ 0x20000000) (0003ms, 0394ms total)
T20C0 000:567 JLINK_IsHalted() -- CPU_ReadMem(2 bytes @ 0x20000000)  returns TRUE (0004ms, 0398ms total)
T20C0 000:571 JLINK_ReadReg(R15)  returns 0x20000000 (0000ms, 0394ms total)
T20C0 000:571 JLINK_ClrBPEx(BPHandle = 0x00000004)  returns 0x00 (0000ms, 0394ms total)
T20C0 000:571 JLINK_ReadReg(R0)  returns 0x00000000 (0000ms, 0394ms total)
T20C0 000:572 JLINK_WriteMem(0x20000164, 0x0400 Bytes, ...) -- Data:  90 06 00 20 35 5A 00 08 49 52 00 08 4B 52 00 08 ... -- CPU_WriteMem(1024 bytes @ 0x20000164)  returns 0x400 (0012ms, 0406ms total)
T20C0 000:584 JLINK_WriteReg(R0, 0x08005000)  returns 0x00 (0000ms, 0406ms total)
T20C0 000:584 JLINK_WriteReg(R1, 0x00000400)  returns 0x00 (0000ms, 0406ms total)
T20C0 000:584 JLINK_WriteReg(R2, 0x20000164)  returns 0x00 (0000ms, 0406ms total)
T20C0 000:584 JLINK_WriteReg(R3, 0x00000000)  returns 0x00 (0000ms, 0406ms total)
T20C0 000:584 JLINK_WriteReg(R4, 0x00000000)  returns 0x00 (0000ms, 0406ms total)
T20C0 000:584 JLINK_WriteReg(R5, 0x00000000)  returns 0x00 (0000ms, 0406ms total)
T20C0 000:585 JLINK_WriteReg(R6, 0x00000000)  returns 0x00 (0000ms, 0406ms total)
T20C0 000:585 JLINK_WriteReg(R7, 0x00000000)  returns 0x00 (0000ms, 0406ms total)
T20C0 000:585 JLINK_WriteReg(R8, 0x00000000)  returns 0x00 (0000ms, 0406ms total)
T20C0 000:585 JLINK_WriteReg(R9, 0x20000160)  returns 0x00 (0000ms, 0406ms total)
T20C0 000:585 JLINK_WriteReg(R10, 0x00000000)  returns 0x00 (0000ms, 0406ms total)
T20C0 000:585 JLINK_WriteReg(R11, 0x00000000)  returns 0x00 (0000ms, 0406ms total)
T20C0 000:585 JLINK_WriteReg(R12, 0x00000000)  returns 0x00 (0000ms, 0406ms total)
T20C0 000:585 JLINK_WriteReg(R13, 0x20000800)  returns 0x00 (0000ms, 0406ms total)
T20C0 000:585 JLINK_WriteReg(R14, 0x20000001)  returns 0x00 (0000ms, 0406ms total)
T20C0 000:585 JLINK_WriteReg(R15, 0x200000F4)  returns 0x00 (0000ms, 0406ms total)
T20C0 000:585 JLINK_WriteReg(XPSR, 0x01000000)  returns 0x00 (0000ms, 0406ms total)
T20C0 000:585 JLINK_WriteReg(MSP, 0x20000800)  returns 0x00 (0000ms, 0406ms total)
T20C0 000:585 JLINK_WriteReg(PSP, 0x20000800)  returns 0x00 (0000ms, 0406ms total)
T20C0 000:585 JLINK_WriteReg(CFBP, 0x00000000)  returns 0x00 (0000ms, 0406ms total)
T20C0 000:585 JLINK_SetBPEx(Addr = 0x20000000, Type = 0xFFFFFFF2)  returns 0x00000005 (0000ms, 0406ms total)
T20C0 000:585 JLINK_Go() (0002ms, 0408ms total)
T20C0 000:587 JLINK_IsHalted()  returns FALSE (0001ms, 0409ms total)
T20C0 000:638 JLINK_IsHalted() -- CPU_ReadMem(2 bytes @ 0x20000000)  returns TRUE (0004ms, 0412ms total)
T20C0 000:642 JLINK_ReadReg(R15)  returns 0x20000000 (0000ms, 0408ms total)
T20C0 000:642 JLINK_ClrBPEx(BPHandle = 0x00000005)  returns 0x00 (0000ms, 0408ms total)
T20C0 000:642 JLINK_ReadReg(R0)  returns 0x00000000 (0000ms, 0408ms total)
T20C0 000:643 JLINK_WriteMem(0x20000164, 0x0400 Bytes, ...) -- Data:  2D E9 F0 41 02 46 00 25 00 26 00 20 00 23 00 24 ... -- CPU_WriteMem(1024 bytes @ 0x20000164)  returns 0x400 (0012ms, 0420ms total)
T20C0 000:655 JLINK_WriteReg(R0, 0x08005400)  returns 0x00 (0000ms, 0420ms total)
T20C0 000:655 JLINK_WriteReg(R1, 0x00000400)  returns 0x00 (0000ms, 0420ms total)
T20C0 000:655 JLINK_WriteReg(R2, 0x20000164)  returns 0x00 (0000ms, 0420ms total)
T20C0 000:655 JLINK_WriteReg(R3, 0x00000000)  returns 0x00 (0001ms, 0421ms total)
T20C0 000:656 JLINK_WriteReg(R4, 0x00000000)  returns 0x00 (0000ms, 0421ms total)
T20C0 000:656 JLINK_WriteReg(R5, 0x00000000)  returns 0x00 (0000ms, 0421ms total)
T20C0 000:656 JLINK_WriteReg(R6, 0x00000000)  returns 0x00 (0000ms, 0421ms total)
T20C0 000:656 JLINK_WriteReg(R7, 0x00000000)  returns 0x00 (0000ms, 0421ms total)
T20C0 000:656 JLINK_WriteReg(R8, 0x00000000)  returns 0x00 (0000ms, 0421ms total)
T20C0 000:656 JLINK_WriteReg(R9, 0x20000160)  returns 0x00 (0000ms, 0421ms total)
T20C0 000:656 JLINK_WriteReg(R10, 0x00000000)  returns 0x00 (0000ms, 0421ms total)
T20C0 000:656 JLINK_WriteReg(R11, 0x00000000)  returns 0x00 (0000ms, 0421ms total)
T20C0 000:656 JLINK_WriteReg(R12, 0x00000000)  returns 0x00 (0000ms, 0421ms total)
T20C0 000:656 JLINK_WriteReg(R13, 0x20000800)  returns 0x00 (0000ms, 0421ms total)
T20C0 000:656 JLINK_WriteReg(R14, 0x20000001)  returns 0x00 (0000ms, 0421ms total)
T20C0 000:656 JLINK_WriteReg(R15, 0x200000F4)  returns 0x00 (0000ms, 0421ms total)
T20C0 000:656 JLINK_WriteReg(XPSR, 0x01000000)  returns 0x00 (0000ms, 0421ms total)
T20C0 000:656 JLINK_WriteReg(MSP, 0x20000800)  returns 0x00 (0000ms, 0421ms total)
T20C0 000:656 JLINK_WriteReg(PSP, 0x20000800)  returns 0x00 (0000ms, 0421ms total)
T20C0 000:656 JLINK_WriteReg(CFBP, 0x00000000)  returns 0x00 (0000ms, 0421ms total)
T20C0 000:656 JLINK_SetBPEx(Addr = 0x20000000, Type = 0xFFFFFFF2)  returns 0x00000006 (0000ms, 0421ms total)
T20C0 000:656 JLINK_Go() (0002ms, 0423ms total)
T20C0 000:658 JLINK_IsHalted()  returns FALSE (0001ms, 0424ms total)
T20C0 000:709 JLINK_IsHalted() -- CPU_ReadMem(2 bytes @ 0x20000000)  returns TRUE (0004ms, 0427ms total)
T20C0 000:713 JLINK_ReadReg(R15)  returns 0x20000000 (0000ms, 0423ms total)
T20C0 000:713 JLINK_ClrBPEx(BPHandle = 0x00000006)  returns 0x00 (0000ms, 0423ms total)
T20C0 000:713 JLINK_ReadReg(R0)  returns 0x00000000 (0000ms, 0423ms total)
T20C0 000:714 JLINK_WriteMem(0x20000164, 0x0400 Bytes, ...) -- Data:  00 20 81 4A 50 68 20 F4 60 50 40 EA C1 00 50 60 ... -- CPU_WriteMem(1024 bytes @ 0x20000164)  returns 0x400 (0012ms, 0435ms total)
T20C0 000:726 JLINK_WriteReg(R0, 0x08005800)  returns 0x00 (0000ms, 0435ms total)
T20C0 000:726 JLINK_WriteReg(R1, 0x00000400)  returns 0x00 (0000ms, 0435ms total)
T20C0 000:726 JLINK_WriteReg(R2, 0x20000164)  returns 0x00 (0000ms, 0435ms total)
T20C0 000:726 JLINK_WriteReg(R3, 0x00000000)  returns 0x00 (0000ms, 0435ms total)
T20C0 000:726 JLINK_WriteReg(R4, 0x00000000)  returns 0x00 (0000ms, 0435ms total)
T20C0 000:726 JLINK_WriteReg(R5, 0x00000000)  returns 0x00 (0000ms, 0435ms total)
T20C0 000:726 JLINK_WriteReg(R6, 0x00000000)  returns 0x00 (0000ms, 0435ms total)
T20C0 000:726 JLINK_WriteReg(R7, 0x00000000)  returns 0x00 (0000ms, 0435ms total)
T20C0 000:726 JLINK_WriteReg(R8, 0x00000000)  returns 0x00 (0000ms, 0435ms total)
T20C0 000:726 JLINK_WriteReg(R9, 0x20000160)  returns 0x00 (0000ms, 0435ms total)
T20C0 000:726 JLINK_WriteReg(R10, 0x00000000)  returns 0x00 (0000ms, 0435ms total)
T20C0 000:726 JLINK_WriteReg(R11, 0x00000000)  returns 0x00 (0000ms, 0435ms total)
T20C0 000:726 JLINK_WriteReg(R12, 0x00000000)  returns 0x00 (0000ms, 0435ms total)
T20C0 000:726 JLINK_WriteReg(R13, 0x20000800)  returns 0x00 (0000ms, 0435ms total)
T20C0 000:726 JLINK_WriteReg(R14, 0x20000001)  returns 0x00 (0001ms, 0436ms total)
T20C0 000:727 JLINK_WriteReg(R15, 0x200000F4)  returns 0x00 (0000ms, 0436ms total)
T20C0 000:727 JLINK_WriteReg(XPSR, 0x01000000)  returns 0x00 (0000ms, 0436ms total)
T20C0 000:727 JLINK_WriteReg(MSP, 0x20000800)  returns 0x00 (0000ms, 0436ms total)
T20C0 000:727 JLINK_WriteReg(PSP, 0x20000800)  returns 0x00 (0000ms, 0436ms total)
T20C0 000:727 JLINK_WriteReg(CFBP, 0x00000000)  returns 0x00 (0000ms, 0436ms total)
T20C0 000:727 JLINK_SetBPEx(Addr = 0x20000000, Type = 0xFFFFFFF2)  returns 0x00000007 (0000ms, 0436ms total)
T20C0 000:727 JLINK_Go() (0002ms, 0438ms total)
T20C0 000:729 JLINK_IsHalted()  returns FALSE (0000ms, 0438ms total)
T20C0 000:779 JLINK_IsHalted() -- CPU_ReadMem(2 bytes @ 0x20000000)  returns TRUE (0004ms, 0442ms total)
T20C0 000:783 JLINK_ReadReg(R15)  returns 0x20000000 (0000ms, 0438ms total)
T20C0 000:783 JLINK_ClrBPEx(BPHandle = 0x00000007)  returns 0x00 (0000ms, 0438ms total)
T20C0 000:783 JLINK_ReadReg(R0)  returns 0x00000000 (0000ms, 0438ms total)
T20C0 000:784 JLINK_WriteMem(0x20000164, 0x0400 Bytes, ...) -- Data:  05 4B 5B 68 C3 F3 03 13 0B 4C E1 5C 08 4B 1B 68 ... -- CPU_WriteMem(1024 bytes @ 0x20000164)  returns 0x400 (0012ms, 0450ms total)
T20C0 000:796 JLINK_WriteReg(R0, 0x08005C00)  returns 0x00 (0000ms, 0450ms total)
T20C0 000:796 JLINK_WriteReg(R1, 0x00000100)  returns 0x00 (0000ms, 0450ms total)
T20C0 000:796 JLINK_WriteReg(R2, 0x20000164)  returns 0x00 (0000ms, 0450ms total)
T20C0 000:796 JLINK_WriteReg(R3, 0x00000000)  returns 0x00 (0000ms, 0450ms total)
T20C0 000:796 JLINK_WriteReg(R4, 0x00000000)  returns 0x00 (0000ms, 0450ms total)
T20C0 000:796 JLINK_WriteReg(R5, 0x00000000)  returns 0x00 (0000ms, 0450ms total)
T20C0 000:796 JLINK_WriteReg(R6, 0x00000000)  returns 0x00 (0000ms, 0450ms total)
T20C0 000:796 JLINK_WriteReg(R7, 0x00000000)  returns 0x00 (0000ms, 0450ms total)
T20C0 000:796 JLINK_WriteReg(R8, 0x00000000)  returns 0x00 (0000ms, 0450ms total)
T20C0 000:796 JLINK_WriteReg(R9, 0x20000160)  returns 0x00 (0000ms, 0450ms total)
T20C0 000:796 JLINK_WriteReg(R10, 0x00000000)  returns 0x00 (0000ms, 0450ms total)
T20C0 000:796 JLINK_WriteReg(R11, 0x00000000)  returns 0x00 (0000ms, 0450ms total)
T20C0 000:796 JLINK_WriteReg(R12, 0x00000000)  returns 0x00 (0000ms, 0450ms total)
T20C0 000:796 JLINK_WriteReg(R13, 0x20000800)  returns 0x00 (0000ms, 0450ms total)
T20C0 000:796 JLINK_WriteReg(R14, 0x20000001)  returns 0x00 (0000ms, 0450ms total)
T20C0 000:796 JLINK_WriteReg(R15, 0x200000F4)  returns 0x00 (0000ms, 0450ms total)
T20C0 000:796 JLINK_WriteReg(XPSR, 0x01000000)  returns 0x00 (0000ms, 0450ms total)
T20C0 000:796 JLINK_WriteReg(MSP, 0x20000800)  returns 0x00 (0000ms, 0450ms total)
T20C0 000:796 JLINK_WriteReg(PSP, 0x20000800)  returns 0x00 (0000ms, 0450ms total)
T20C0 000:796 JLINK_WriteReg(CFBP, 0x00000000)  returns 0x00 (0000ms, 0450ms total)
T20C0 000:796 JLINK_SetBPEx(Addr = 0x20000000, Type = 0xFFFFFFF2)  returns 0x00000008 (0000ms, 0450ms total)
T20C0 000:796 JLINK_Go() (0003ms, 0453ms total)
T20C0 000:799 JLINK_IsHalted()  returns FALSE (0000ms, 0453ms total)
T20C0 000:849 JLINK_IsHalted() -- CPU_ReadMem(2 bytes @ 0x20000000)  returns TRUE (0004ms, 0457ms total)
T20C0 000:853 JLINK_ReadReg(R15)  returns 0x20000000 (0000ms, 0453ms total)
T20C0 000:853 JLINK_ClrBPEx(BPHandle = 0x00000008)  returns 0x00 (0000ms, 0453ms total)
T20C0 000:853 JLINK_ReadReg(R0)  returns 0x00000000 (0000ms, 0453ms total)
T20C0 000:853 JLINK_WriteReg(R0, 0x00000002)  returns 0x00 (0000ms, 0453ms total)
T20C0 000:853 JLINK_WriteReg(R1, 0x00000100)  returns 0x00 (0000ms, 0453ms total)
T20C0 000:853 JLINK_WriteReg(R2, 0x20000164)  returns 0x00 (0000ms, 0453ms total)
T20C0 000:853 JLINK_WriteReg(R3, 0x00000000)  returns 0x00 (0000ms, 0453ms total)
T20C0 000:853 JLINK_WriteReg(R4, 0x00000000)  returns 0x00 (0000ms, 0453ms total)
T20C0 000:853 JLINK_WriteReg(R5, 0x00000000)  returns 0x00 (0000ms, 0453ms total)
T20C0 000:853 JLINK_WriteReg(R6, 0x00000000)  returns 0x00 (0000ms, 0453ms total)
T20C0 000:853 JLINK_WriteReg(R7, 0x00000000)  returns 0x00 (0000ms, 0453ms total)
T20C0 000:853 JLINK_WriteReg(R8, 0x00000000)  returns 0x00 (0000ms, 0453ms total)
T20C0 000:853 JLINK_WriteReg(R9, 0x20000160)  returns 0x00 (0000ms, 0453ms total)
T20C0 000:853 JLINK_WriteReg(R10, 0x00000000)  returns 0x00 (0000ms, 0453ms total)
T20C0 000:853 JLINK_WriteReg(R11, 0x00000000)  returns 0x00 (0000ms, 0453ms total)
T20C0 000:853 JLINK_WriteReg(R12, 0x00000000)  returns 0x00 (0000ms, 0453ms total)
T20C0 000:853 JLINK_WriteReg(R13, 0x20000800)  returns 0x00 (0000ms, 0453ms total)
T20C0 000:853 JLINK_WriteReg(R14, 0x20000001)  returns 0x00 (0000ms, 0453ms total)
T20C0 000:853 JLINK_WriteReg(R15, 0x2000006A)  returns 0x00 (0000ms, 0453ms total)
T20C0 000:853 JLINK_WriteReg(XPSR, 0x01000000)  returns 0x00 (0000ms, 0453ms total)
T20C0 000:853 JLINK_WriteReg(MSP, 0x20000800)  returns 0x00 (0000ms, 0453ms total)
T20C0 000:853 JLINK_WriteReg(PSP, 0x20000800)  returns 0x00 (0000ms, 0453ms total)
T20C0 000:853 JLINK_WriteReg(CFBP, 0x00000000)  returns 0x00 (0000ms, 0453ms total)
T20C0 000:853 JLINK_SetBPEx(Addr = 0x20000000, Type = 0xFFFFFFF2)  returns 0x00000009 (0000ms, 0453ms total)
T20C0 000:853 JLINK_Go() (0002ms, 0455ms total)
T20C0 000:855 JLINK_IsHalted() -- CPU_ReadMem(2 bytes @ 0x20000000)  returns TRUE (0005ms, 0460ms total)
T20C0 000:860 JLINK_ReadReg(R15)  returns 0x20000000 (0000ms, 0455ms total)
T20C0 000:860 JLINK_ClrBPEx(BPHandle = 0x00000009)  returns 0x00 (0000ms, 0455ms total)
T20C0 000:860 JLINK_ReadReg(R0)  returns 0x00000000 (0000ms, 0455ms total)
T20C0 000:917 JLINK_WriteMem(0x20000000, 0x0164 Bytes, ...) -- Data:  00 BE 0A E0 0D 78 2D 06 68 40 08 24 40 00 00 D3 ... -- CPU_WriteMem(356 bytes @ 0x20000000)  returns 0x164 (0005ms, 0460ms total)
T20C0 000:922 JLINK_WriteReg(R0, 0x08000000)  returns 0x00 (0000ms, 0460ms total)
T20C0 000:922 JLINK_WriteReg(R1, 0x007A1200)  returns 0x00 (0000ms, 0460ms total)
T20C0 000:922 JLINK_WriteReg(R2, 0x00000003)  returns 0x00 (0000ms, 0460ms total)
T20C0 000:922 JLINK_WriteReg(R3, 0x00000000)  returns 0x00 (0000ms, 0460ms total)
T20C0 000:922 JLINK_WriteReg(R4, 0x00000000)  returns 0x00 (0000ms, 0460ms total)
T20C0 000:922 JLINK_WriteReg(R5, 0x00000000)  returns 0x00 (0000ms, 0460ms total)
T20C0 000:922 JLINK_WriteReg(R6, 0x00000000)  returns 0x00 (0000ms, 0460ms total)
T20C0 000:922 JLINK_WriteReg(R7, 0x00000000)  returns 0x00 (0000ms, 0460ms total)
T20C0 000:922 JLINK_WriteReg(R8, 0x00000000)  returns 0x00 (0000ms, 0460ms total)
T20C0 000:922 JLINK_WriteReg(R9, 0x20000160)  returns 0x00 (0000ms, 0460ms total)
T20C0 000:922 JLINK_WriteReg(R10, 0x00000000)  returns 0x00 (0000ms, 0460ms total)
T20C0 000:922 JLINK_WriteReg(R11, 0x00000000)  returns 0x00 (0000ms, 0460ms total)
T20C0 000:922 JLINK_WriteReg(R12, 0x00000000)  returns 0x00 (0000ms, 0460ms total)
T20C0 000:922 JLINK_WriteReg(R13, 0x20000800)  returns 0x00 (0000ms, 0460ms total)
T20C0 000:922 JLINK_WriteReg(R14, 0x20000001)  returns 0x00 (0000ms, 0460ms total)
T20C0 000:922 JLINK_WriteReg(R15, 0x20000038)  returns 0x00 (0000ms, 0460ms total)
T20C0 000:922 JLINK_WriteReg(XPSR, 0x01000000)  returns 0x00 (0000ms, 0460ms total)
T20C0 000:922 JLINK_WriteReg(MSP, 0x20000800)  returns 0x00 (0000ms, 0460ms total)
T20C0 000:922 JLINK_WriteReg(PSP, 0x20000800)  returns 0x00 (0000ms, 0460ms total)
T20C0 000:922 JLINK_WriteReg(CFBP, 0x00000000)  returns 0x00 (0000ms, 0460ms total)
T20C0 000:922 JLINK_SetBPEx(Addr = 0x20000000, Type = 0xFFFFFFF2) -- CPU_ReadMem(2 bytes @ 0x20000000)  returns 0x0000000A (0001ms, 0461ms total)
T20C0 000:923 JLINK_Go() -- CPU_WriteMem(2 bytes @ 0x20000000) (0002ms, 0463ms total)
T20C0 000:925 JLINK_IsHalted() -- CPU_ReadMem(2 bytes @ 0x20000000)  returns TRUE (0005ms, 0468ms total)
T20C0 000:930 JLINK_ReadReg(R15)  returns 0x20000000 (0000ms, 0463ms total)
T20C0 000:930 JLINK_ClrBPEx(BPHandle = 0x0000000A)  returns 0x00 (0000ms, 0463ms total)
T20C0 000:930 JLINK_ReadReg(R0)  returns 0x00000000 (0000ms, 0463ms total)
T20C0 000:930 JLINK_WriteReg(R0, 0xFFFFFFFF)  returns 0x00 (0000ms, 0463ms total)
T20C0 000:930 JLINK_WriteReg(R1, 0x08005000)  returns 0x00 (0000ms, 0463ms total)
T20C0 000:930 JLINK_WriteReg(R2, 0x00000D00)  returns 0x00 (0000ms, 0463ms total)
T20C0 000:930 JLINK_WriteReg(R3, 0x04C11DB7)  returns 0x00 (0000ms, 0463ms total)
T20C0 000:930 JLINK_WriteReg(R4, 0x00000000)  returns 0x00 (0000ms, 0463ms total)
T20C0 000:930 JLINK_WriteReg(R5, 0x00000000)  returns 0x00 (0000ms, 0463ms total)
T20C0 000:930 JLINK_WriteReg(R6, 0x00000000)  returns 0x00 (0000ms, 0463ms total)
T20C0 000:930 JLINK_WriteReg(R7, 0x00000000)  returns 0x00 (0000ms, 0463ms total)
T20C0 000:930 JLINK_WriteReg(R8, 0x00000000)  returns 0x00 (0000ms, 0463ms total)
T20C0 000:930 JLINK_WriteReg(R9, 0x20000160)  returns 0x00 (0000ms, 0463ms total)
T20C0 000:930 JLINK_WriteReg(R10, 0x00000000)  returns 0x00 (0000ms, 0463ms total)
T20C0 000:930 JLINK_WriteReg(R11, 0x00000000)  returns 0x00 (0000ms, 0463ms total)
T20C0 000:930 JLINK_WriteReg(R12, 0x00000000)  returns 0x00 (0000ms, 0463ms total)
T20C0 000:930 JLINK_WriteReg(R13, 0x20000800)  returns 0x00 (0000ms, 0463ms total)
T20C0 000:930 JLINK_WriteReg(R14, 0x20000001)  returns 0x00 (0000ms, 0463ms total)
T20C0 000:930 JLINK_WriteReg(R15, 0x20000002)  returns 0x00 (0000ms, 0463ms total)
T20C0 000:930 JLINK_WriteReg(XPSR, 0x01000000)  returns 0x00 (0000ms, 0463ms total)
T20C0 000:930 JLINK_WriteReg(MSP, 0x20000800)  returns 0x00 (0000ms, 0463ms total)
T20C0 000:930 JLINK_WriteReg(PSP, 0x20000800)  returns 0x00 (0000ms, 0463ms total)
T20C0 000:930 JLINK_WriteReg(CFBP, 0x00000000)  returns 0x00 (0000ms, 0463ms total)
T20C0 000:930 JLINK_SetBPEx(Addr = 0x20000000, Type = 0xFFFFFFF2)  returns 0x0000000B (0000ms, 0463ms total)
T20C0 000:930 JLINK_Go() (0003ms, 0466ms total)
T20C0 000:933 JLINK_IsHalted()  returns FALSE (0000ms, 0466ms total)
T20C0 000:983 JLINK_IsHalted() -- CPU_ReadMem(2 bytes @ 0x20000000)  returns TRUE (0004ms, 0470ms total)
T20C0 000:987 JLINK_ReadReg(R15)  returns 0x20000000 (0000ms, 0466ms total)
T20C0 000:987 JLINK_ClrBPEx(BPHandle = 0x0000000B)  returns 0x00 (0000ms, 0466ms total)
T20C0 000:987 JLINK_ReadReg(R0)  returns 0xB2700035 (0000ms, 0466ms total)
T20C0 000:988 JLINK_WriteReg(R0, 0x00000003)  returns 0x00 (0000ms, 0466ms total)
T20C0 000:988 JLINK_WriteReg(R1, 0x08005000)  returns 0x00 (0000ms, 0466ms total)
T20C0 000:988 JLINK_WriteReg(R2, 0x00000D00)  returns 0x00 (0000ms, 0466ms total)
T20C0 000:988 JLINK_WriteReg(R3, 0x04C11DB7)  returns 0x00 (0000ms, 0466ms total)
T20C0 000:988 JLINK_WriteReg(R4, 0x00000000)  returns 0x00 (0000ms, 0466ms total)
T20C0 000:988 JLINK_WriteReg(R5, 0x00000000)  returns 0x00 (0000ms, 0466ms total)
T20C0 000:988 JLINK_WriteReg(R6, 0x00000000)  returns 0x00 (0000ms, 0466ms total)
T20C0 000:988 JLINK_WriteReg(R7, 0x00000000)  returns 0x00 (0000ms, 0466ms total)
T20C0 000:988 JLINK_WriteReg(R8, 0x00000000)  returns 0x00 (0000ms, 0466ms total)
T20C0 000:988 JLINK_WriteReg(R9, 0x20000160)  returns 0x00 (0000ms, 0466ms total)
T20C0 000:988 JLINK_WriteReg(R10, 0x00000000)  returns 0x00 (0000ms, 0466ms total)
T20C0 000:988 JLINK_WriteReg(R11, 0x00000000)  returns 0x00 (0000ms, 0466ms total)
T20C0 000:988 JLINK_WriteReg(R12, 0x00000000)  returns 0x00 (0000ms, 0466ms total)
T20C0 000:988 JLINK_WriteReg(R13, 0x20000800)  returns 0x00 (0000ms, 0466ms total)
T20C0 000:988 JLINK_WriteReg(R14, 0x20000001)  returns 0x00 (0000ms, 0466ms total)
T20C0 000:988 JLINK_WriteReg(R15, 0x2000006A)  returns 0x00 (0000ms, 0466ms total)
T20C0 000:988 JLINK_WriteReg(XPSR, 0x01000000)  returns 0x00 (0000ms, 0466ms total)
T20C0 000:988 JLINK_WriteReg(MSP, 0x20000800)  returns 0x00 (0000ms, 0466ms total)
T20C0 000:988 JLINK_WriteReg(PSP, 0x20000800)  returns 0x00 (0000ms, 0466ms total)
T20C0 000:988 JLINK_WriteReg(CFBP, 0x00000000)  returns 0x00 (0000ms, 0466ms total)
T20C0 000:988 JLINK_SetBPEx(Addr = 0x20000000, Type = 0xFFFFFFF2)  returns 0x0000000C (0000ms, 0466ms total)
T20C0 000:988 JLINK_Go() (0002ms, 0468ms total)
T20C0 000:990 JLINK_IsHalted() -- CPU_ReadMem(2 bytes @ 0x20000000)  returns TRUE (0005ms, 0473ms total)
T20C0 000:995 JLINK_ReadReg(R15)  returns 0x20000000 (0000ms, 0468ms total)
T20C0 000:995 JLINK_ClrBPEx(BPHandle = 0x0000000C)  returns 0x00 (0000ms, 0468ms total)
T20C0 000:995 JLINK_ReadReg(R0)  returns 0x00000000 (0000ms, 0468ms total)
T20C0 001:046 JLINK_SetResetType(JLINKARM_RESET_TYPE_NORMAL)  returns JLINKARM_RESET_TYPE_NORMAL (0000ms, 0468ms total)
T20C0 001:046 JLINK_Reset() -- CPU_WriteMem(4 bytes @ 0xE000EDF0) -- CPU_WriteMem(4 bytes @ 0xE000EDFC) >0x35 TIF> -- CPU_WriteMem(4 bytes @ 0xE000ED0C) -- CPU_ReadMem(4 bytes @ 0xE000EDF0) -- CPU_ReadMem(4 bytes @ 0xE000EDF0) -- CPU_WriteMem(4 bytes @ 0xE000EDF0) -- CPU_WriteMem(4 bytes @ 0xE000EDFC) -- CPU is running -- CPU_ReadMem(4 bytes @ 0xE000EDF0) -- CPU_WriteMem(4 bytes @ 0xE0002000) (0019ms, 0487ms total)
T20C0 001:065 JLINK_Go() -- CPU_ReadMem(2 bytes @ 0x20000000) -- CPU_WriteMem(2 bytes @ 0x20000000) -- CPU_WriteMem(4 bytes @ 0xE0002008) -- CPU_WriteMem(4 bytes @ 0xE000200C) -- CPU_WriteMem(4 bytes @ 0xE0002010) -- CPU_WriteMem(4 bytes @ 0xE0002014) -- CPU_WriteMem(4 bytes @ 0xE0002018) -- CPU_WriteMem(4 bytes @ 0xE000201C) (0006ms, 0493ms total)
T20C0 001:074 JLINK_Close() -- CPU is running -- CPU_WriteMem(4 bytes @ 0xE0002008) -- CPU is running -- CPU_WriteMem(4 bytes @ 0xE000200C) -- CPU is running -- CPU_WriteMem(4 bytes @ 0xE0002010) -- CPU is running -- CPU_WriteMem(4 bytes @ 0xE0002014) -- CPU is running -- CPU_WriteMem(4 bytes @ 0xE0002018) -- CPU is running -- CPU_WriteMem(4 bytes @ 0xE000201C) (0217ms, 0710ms total)
T20C0 001:292 JLINK_Close() (0000ms, 0710ms total)
